Element, I1_1, Ang1_1, I1_2, Ang1_2, I1_3, Ang1_3, I1_4, Ang1_4, Iresid1, AngResid1, I2_1, Ang2_1, I2_2, Ang2_2, I2_3, Ang2_3, I2_4, Ang2_4, Iresid2, AngResid2, I3_1, Ang3_1, I3_2, Ang3_2, I3_3, Ang3_3, I3_4, Ang3_4, Iresid3, AngResid3
Vsource.SOURCE,    49.2998,   171.98,    45.2447,    54.47,    49.1656,   -62.73,          0,     0.00, 4.61945E-009,     0.00,    49.2998,    -8.02,    45.2447,  -125.53,    49.1656,   117.27,          0,     0.00, 4.61945E-009,   180.00,          0,     0.00,          0,     0.00,          0,     0.00,          0,     0.00,          0,     0.00
Line.HVMV_SUB_CONNECTOR,    552.855,   -37.16,    526.426,  -157.48,    498.663,    88.68,          0,     0.00,    50.3796,  -132.68,    552.855,   142.84,    526.426,    22.52,    498.663,   -91.32,          0,     0.00,    50.3796,    47.32,          0,     0.00,          0,     0.00,          0,     0.00,          0,     0.00,          0,     0.00
Line.LN5502549-1,    1.95614,   179.27,          0,     0.00,          0,     0.00,          0,     0.00,    1.95614,   179.27,    1.95628,    -0.74,          0,     0.00,          0,     0.00,          0,     0.00,    1.95628,    -0.74,          0,     0.00,          0,     0.00,          0,     0.00,          0,     0.00,          0,     0.00
Line.LN6259988-1,    1.44689,    66.67,          0,     0.00,          0,     0.00,          0,     0.00,    1.44689,    66.67,    1.44738,  -113.40,          0,     0.00,          0,     0.00,          0,     0.00,    1.44738,  -113.40,          0,     0.00,          0,     0.00,          0,     0.00,          0,     0.00,          0,     0.00
Line.LN6077796-1,    1.66753,  -178.95,          0,     0.00,          0,     0.00,          0,     0.00,    1.66753,  -178.95,    1.66758,     1.04,          0,     0.00,          0,     0.00,          0,     0.00,    1.66758,     1.04,          0,     0.00,          0,     0.00,          0,     0.00,          0,     0.00,          0,     0.00
Line.LN5835135-2,    16.5412,   179.58,          0,     0.00,          0,     0.00,          0,     0.00,    16.5412,   179.58,    16.5414,    -0.42,          0,     0.00,          0,     0.00,          0,     0.00,    16.5414,    -0.42,          0,     0.00,          0,     0.00,          0,     0.00,          0,     0.00,          0,     0.00
Line.LN5896826-1,   0.823708,  -170.07,          0,     0.00,          0,     0.00,          0,     0.00,   0.823708,  -170.07,   0.824656,     9.68,          0,     0.00,          0,     0.00,          0,     0.00,   0.824656,     9.68,          0,     0.00,          0,     0.00,          0,     0.00,          0,     0.00,          0,     0.00
Line.LN5714038-1,    2.18795,  -173.79,          0,     0.00,          0,     0.00,          0,     0.00,    2.18795,  -173.79,    2.18839,     6.17,          0,     0.00,          0,     0.00,          0,     0.00,    2.18839,     6.17,          0,     0.00,          0,     0.00,          0,     0.00,          0,     0.00,          0,     0.00
Line.LN5653457-1,    20.0462,   -58.73,    41.9631,   179.32,    15.9454,    65.96,          0,     0.00,     25.144,  -175.27,    20.0469,   121.26,    41.9638,    -0.68,    15.9458,  -114.05,          0,     0.00,     25.144,     4.73,          0,     0.00,          0,     0.00,          0,     0.00,          0,     0.00,          0,     0.00
Line.LN5835173-1,    28.5503,   -58.10,    63.2385,   179.49,     48.116,    65.39,          0,     0.00,    34.5374,   144.48,    28.5506,   121.90,    63.2389,    -0.51,    48.1162,  -114.62,          0,     0.00,    34.5374,   -35.52,          0,     0.00,          0,     0.00,          0,     0.00,          0,     0.00,          0,     0.00
Line.LN6321415-1,    1.40594,  -172.36,          0,     0.00,          0,     0.00,          0,     0.00,    1.40594,  -172.36,    1.40636,     7.58,          0,     0.00,          0,     0.00,          0,     0.00,    1.40636,     7.58,          0,     0.00,          0,     0.00,          0,     0.00,          0,     0.00,          0,     0.00
Line.LN5565092-1,    2.16603,    65.89,          0,     0.00,          0,     0.00,          0,     0.00,    2.16603,    65.89,    2.16604,  -114.12,          0,     0.00,          0,     0.00,          0,     0.00,    2.16604,  -114.12,          0,     0.00,          0,     0.00,          0,     0.00,          0,     0.00,          0,     0.00
Line.LN6073648-1,    3.08212,   -54.59,          0,     0.00,          0,     0.00,          0,     0.00,    3.08212,   -54.59,    3.08215,   125.40,          0,     0.00,          0,     0.00,          0,     0.00,    3.08215,   125.40,          0,     0.00,          0,     0.00,          0,     0.00,          0,     0.00,          0,     0.00
Line.LN5774457-1,     30.096,   -58.83,    23.9538,   179.53,    22.9372,    65.91,          0,     0.00,    4.71873,   -77.92,    30.0963,   121.17,    23.9542,    -0.47,    22.9374,  -114.09,          0,     0.00,    4.71872,   102.08,          0,     0.00,          0,     0.00,          0,     0.00,          0,     0.00,          0,     0.00
Line.LN5534966-3,    11.1079,   -58.31,          0,     0.00,          0,     0.00,          0,     0.00,    11.1079,   -58.31,    11.1081,   121.69,          0,     0.00,          0,     0.00,          0,     0.00,    11.1081,   121.69,          0,     0.00,          0,     0.00,          0,     0.00,          0,     0.00,          0,     0.00
Line.LN5859996-1,    2.79726,   179.74,          0,     0.00,          0,     0.00,          0,     0.00,    2.79726,   179.74,    2.79729,    -0.26,          0,     0.00,          0,     0.00,          0,     0.00,    2.79729,    -0.26,          0,     0.00,          0,     0.00,          0,     0.00,          0,     0.00,          0,     0.00
Line.LN6138610-2,    119.165,   -58.36,    90.6641,   179.74,    104.047,    65.73,          0,     0.00,    15.8769,   -22.93,    119.166,   121.64,    90.6643,    -0.26,    104.047,  -114.27,          0,     0.00,    15.8769,   157.07,          0,     0.00,          0,     0.00,          0,     0.00,          0,     0.00,          0,     0.00
Line.LN6258435-3,    2.53189,   -58.29,          0,     0.00,          0,     0.00,          0,     0.00,    2.53189,   -58.29,    2.53232,   121.68,          0,     0.00,          0,     0.00,          0,     0.00,    2.53232,   121.68,          0,     0.00,          0,     0.00,          0,     0.00,          0,     0.00,          0,     0.00
Line.LN5804790-1,    1.46827,    67.59,          0,     0.00,          0,     0.00,          0,     0.00,    1.46827,    67.59,    1.46914,  -112.54,          0,     0.00,          0,     0.00,          0,     0.00,    1.46914,  -112.54,          0,     0.00,          0,     0.00,          0,     0.00,          0,     0.00,          0,     0.00
Line.LN6900591-14,    4.57789,   -58.65,          0,     0.00,          0,     0.00,          0,     0.00,    4.57789,   -58.65,    4.57819,   121.34,          0,     0.00,          0,     0.00,          0,     0.00,    4.57819,   121.34,          0,     0.00,          0,     0.00,          0,     0.00,          0,     0.00,          0,     0.00
Line.LN6409873-1,    10.5343,  -173.78,          0,     0.00,          0,     0.00,          0,     0.00,    10.5343,  -173.78,    10.5346,     6.21,          0,     0.00,          0,     0.00,          0,     0.00,    10.5346,     6.21,          0,     0.00,          0,     0.00,          0,     0.00,          0,     0.00,          0,     0.00
Line.LN6014135-1,    9.69518,   -54.63,          0,     0.00,          0,     0.00,          0,     0.00,    9.69518,   -54.63,    9.69519,   125.37,          0,     0.00,          0,     0.00,          0,     0.00,    9.69519,   125.37,          0,     0.00,          0,     0.00,          0,     0.00,          0,     0.00,          0,     0.00
Line.LN6077784-1,    57.9627,   -58.77,    69.3889,   179.41,    42.6337,    65.95,          0,     0.00,    24.0986,  -155.69,    57.9632,   121.23,    69.3894,    -0.59,     42.634,  -114.05,          0,     0.00,    24.0986,    24.31,          0,     0.00,          0,     0.00,          0,     0.00,          0,     0.00,          0,     0.00
Line.LN5744338-1,    27.2139,  -175.70,          0,     0.00,          0,     0.00,          0,     0.00,    27.2139,  -175.70,    27.2142,     4.30,          0,     0.00,          0,     0.00,          0,     0.00,    27.2142,     4.30,          0,     0.00,          0,     0.00,          0,     0.00,          0,     0.00,          0,     0.00
Line.LN6991381-4,    5.09551,   -58.46,          0,     0.00,          0,     0.00,          0,     0.00,    5.09551,   -58.46,    5.09588,   121.53,          0,     0.00,          0,     0.00,          0,     0.00,    5.09588,   121.53,          0,     0.00,          0,     0.00,          0,     0.00,          0,     0.00,          0,     0.00
Line.LN5774480-1,    31.5319,  -178.93,          0,     0.00,          0,     0.00,          0,     0.00,    31.5319,  -178.93,    31.5326,     1.07,          0,     0.00,          0,     0.00,          0,     0.00,    31.5326,     1.07,          0,     0.00,          0,     0.00,          0,     0.00,          0,     0.00,          0,     0.00
Line.LN5986938-3,    5.44873,   -58.48,          0,     0.00,          0,     0.00,          0,     0.00,    5.44873,   -58.48,    5.44877,   121.52,          0,     0.00,          0,     0.00,          0,     0.00,    5.44877,   121.52,          0,     0.00,          0,     0.00,          0,     0.00,          0,     0.00,          0,     0.00
Line.LN5894230-1,    1.44441,    70.93,          0,     0.00,          0,     0.00,          0,     0.00,    1.44441,    70.93,    1.44498,  -109.15,          0,     0.00,          0,     0.00,          0,     0.00,    1.44498,  -109.15,          0,     0.00,          0,     0.00,          0,     0.00,          0,     0.00,          0,     0.00
Line.LN5683858-3,    2.60267,   -58.62,    4.15597,  -179.83,    2.95216,    66.07,          0,     0.00,    1.66889,   163.84,     2.6028,   121.37,    4.15611,     0.16,    2.95224,  -113.94,          0,     0.00,    1.66889,   -16.16,          0,     0.00,          0,     0.00,          0,     0.00,          0,     0.00,          0,     0.00
Line.LN5920279-5,    351.126,   -48.58,    322.302,  -169.57,    224.746,    80.58,          0,     0.00,    110.821,  -115.61,    351.126,   131.42,    322.302,    10.43,    224.746,   -99.42,          0,     0.00,    110.821,    64.39,          0,     0.00,          0,     0.00,          0,     0.00,          0,     0.00,          0,     0.00
Line.LN6439600-1,    1.29613,   -58.64,          0,     0.00,          0,     0.00,          0,     0.00,    1.29613,   -58.64,    1.29662,   121.28,          0,     0.00,          0,     0.00,          0,     0.00,    1.29662,   121.28,          0,     0.00,          0,     0.00,          0,     0.00,          0,     0.00,          0,     0.00
Line.LN5589097-1,    1.97221,   -52.61,          0,     0.00,          0,     0.00,          0,     0.00,    1.97221,   -52.61,    1.97233,   127.38,          0,     0.00,          0,     0.00,          0,     0.00,    1.97233,   127.38,          0,     0.00,          0,     0.00,          0,     0.00,          0,     0.00,          0,     0.00
Line.LN5651975-1,    61.6214,   -58.50,    14.8056,  -179.53,    33.3512,    66.18,          0,     0.00,    37.9899,   -35.66,    61.6217,   121.50,    14.8059,     0.47,    33.3514,  -113.82,          0,     0.00,    37.9899,   144.34,          0,     0.00,          0,     0.00,          0,     0.00,          0,     0.00,          0,     0.00
Line.LN5865236-1,    2.54411,   -58.09,          0,     0.00,          0,     0.00,          0,     0.00,    2.54411,   -58.09,    2.54415,   121.91,          0,     0.00,          0,     0.00,          0,     0.00,    2.54415,   121.91,          0,     0.00,          0,     0.00,          0,     0.00,          0,     0.00,          0,     0.00
Line.LN5593232-1,    1.44735,    66.69,          0,     0.00,          0,     0.00,          0,     0.00,    1.44735,    66.69,      1.448,  -113.41,          0,     0.00,          0,     0.00,          0,     0.00,      1.448,  -113.41,          0,     0.00,          0,     0.00,          0,     0.00,          0,     0.00,          0,     0.00
Line.LN5740283-1,    1.71185,    68.29,          0,     0.00,          0,     0.00,          0,     0.00,    1.71185,    68.29,    1.71188,  -111.72,          0,     0.00,          0,     0.00,          0,     0.00,    1.71188,  -111.72,          0,     0.00,          0,     0.00,          0,     0.00,          0,     0.00,          0,     0.00
Line.LN6106559-1,    3.90537,  -178.95,          0,     0.00,          0,     0.00,          0,     0.00,    3.90537,  -178.95,    3.90582,     1.02,          0,     0.00,          0,     0.00,          0,     0.00,    3.90582,     1.02,          0,     0.00,          0,     0.00,          0,     0.00,          0,     0.00,          0,     0.00
Line.LN5714056-3,    51.7777,   -58.53,    11.3612,  -179.60,    25.5003,    66.17,          0,     0.00,    33.3472,   -38.85,    51.7787,   121.46,    11.3622,     0.39,    25.5009,  -113.84,          0,     0.00,    33.3472,   141.15,          0,     0.00,          0,     0.00,          0,     0.00,          0,     0.00,          0,     0.00
Line.LN5985355-3,     55.015,  -178.89,          0,     0.00,          0,     0.00,          0,     0.00,     55.015,  -178.89,    55.0153,     1.11,          0,     0.00,          0,     0.00,          0,     0.00,    55.0153,     1.11,          0,     0.00,          0,     0.00,          0,     0.00,          0,     0.00,          0,     0.00
Line.LN5531956-1,    1.29485,   -57.03,          0,     0.00,          0,     0.00,          0,     0.00,    1.29485,   -57.03,    1.29516,   122.92,          0,     0.00,          0,     0.00,          0,     0.00,    1.29516,   122.92,          0,     0.00,          0,     0.00,          0,     0.00,          0,     0.00,          0,     0.00
Line.LN5650048-1,    1.39412,  -178.93,          0,     0.00,          0,     0.00,          0,     0.00,    1.39412,  -178.93,     1.3944,     1.02,          0,     0.00,          0,     0.00,          0,     0.00,     1.3944,     1.02,          0,     0.00,          0,     0.00,          0,     0.00,          0,     0.00,          0,     0.00
Line.LN6290203-1,    21.9377,   -58.09,    54.5595,   179.44,    39.3552,    65.35,          0,     0.00,    31.8981,   146.34,    21.9385,   121.90,    54.5604,    -0.56,    39.3557,  -114.65,          0,     0.00,     31.898,   -33.66,          0,     0.00,          0,     0.00,          0,     0.00,          0,     0.00,          0,     0.00
Line.LN6134414-1,    2.84222,    66.88,          0,     0.00,          0,     0.00,          0,     0.00,    2.84222,    66.88,    2.84251,  -113.14,          0,     0.00,          0,     0.00,          0,     0.00,    2.84251,  -113.14,          0,     0.00,          0,     0.00,          0,     0.00,          0,     0.00,          0,     0.00
Line.LN6259998-2,    1.74124,    65.97,          0,     0.00,          0,     0.00,          0,     0.00,    1.74124,    65.97,     1.7413,  -114.04,          0,     0.00,          0,     0.00,          0,     0.00,     1.7413,  -114.04,          0,     0.00,          0,     0.00,          0,     0.00,          0,     0.00,          0,     0.00
Line.LN6078767-1,    107.166,   -29.96,    125.111,  -154.35,    155.039,    83.08,          0,     0.00,    46.2527,    91.55,    107.166,   150.04,    125.111,    25.65,    155.039,   -96.92,          0,     0.00,    46.2527,   -88.45,          0,     0.00,          0,     0.00,          0,     0.00,          0,     0.00,          0,     0.00
Line.LN6017300-1,   0.864108,    66.67,          0,     0.00,          0,     0.00,          0,     0.00,   0.864108,    66.67,   0.864503,  -113.42,          0,     0.00,          0,     0.00,          0,     0.00,   0.864503,  -113.42,          0,     0.00,          0,     0.00,          0,     0.00,          0,     0.00,          0,     0.00
Line.LN8979257-2,    1.36082,   -54.03,     1.4347,  -174.88,    1.43017,    68.25,          0,     0.00,   0.140483,   135.20,    1.36125,   125.90,    1.43515,     5.05,    1.43063,  -111.83,          0,     0.00,   0.140453,   -44.88,          0,     0.00,          0,     0.00,          0,     0.00,          0,     0.00,          0,     0.00
Line.LN81048109-1,    4.35318,  -174.91,          0,     0.00,          0,     0.00,          0,     0.00,    4.35318,  -174.91,    4.35507,     4.99,          0,     0.00,          0,     0.00,          0,     0.00,    4.35507,     4.99,          0,     0.00,          0,     0.00,          0,     0.00,          0,     0.00,          0,     0.00
Line.293471,    1.29551,   -54.66,    1.42313,  -175.44,    1.44944,    66.11,          0,     0.00,   0.175944,   117.90,    1.29574,   125.31,    1.42337,     4.52,    1.44961,  -113.92,          0,     0.00,   0.175918,   -62.10,          0,     0.00,          0,     0.00,          0,     0.00,          0,     0.00,          0,     0.00
Line.LN5534965-2,    1.27516,   -58.37,          0,     0.00,          0,     0.00,          0,     0.00,    1.27516,   -58.37,    1.27519,   121.63,          0,     0.00,          0,     0.00,          0,     0.00,    1.27519,   121.63,          0,     0.00,          0,     0.00,          0,     0.00,          0,     0.00,          0,     0.00
Line.LN5655683-1,    20.4237,   -58.59,          0,     0.00,          0,     0.00,          0,     0.00,    20.4237,   -58.59,    20.4238,   121.41,          0,     0.00,          0,     0.00,          0,     0.00,    20.4238,   121.41,          0,     0.00,          0,     0.00,          0,     0.00,          0,     0.00,          0,     0.00
Line.LN5686247-1,    1.97678,  -173.01,          0,     0.00,          0,     0.00,          0,     0.00,    1.97678,  -173.01,    1.97681,     6.99,          0,     0.00,          0,     0.00,          0,     0.00,    1.97681,     6.99,          0,     0.00,          0,     0.00,          0,     0.00,          0,     0.00,          0,     0.00
Line.LN6048642-1, 0.00191015,   -68.19,          0,     0.00,          0,     0.00,          0,     0.00, 0.00191015,   -68.19, 1.81899E-012,    90.00,          0,     0.00,          0,     0.00,          0,     0.00, 1.81899E-012,    90.00,          0,     0.00,          0,     0.00,          0,     0.00,          0,     0.00,          0,     0.00
Line.LN5928544-3,    14.6043,    65.60,          0,     0.00,          0,     0.00,          0,     0.00,    14.6043,    65.60,    14.6046,  -114.40,          0,     0.00,          0,     0.00,          0,     0.00,    14.6046,  -114.40,          0,     0.00,          0,     0.00,          0,     0.00,          0,     0.00,          0,     0.00
Line.LN6108172-1,     2.5911,   -58.59,          0,     0.00,          0,     0.00,          0,     0.00,     2.5911,   -58.59,    2.59205,   121.33,          0,     0.00,          0,     0.00,          0,     0.00,    2.59205,   121.33,          0,     0.00,          0,     0.00,          0,     0.00,          0,     0.00,          0,     0.00
Line.LN5532754-1,    56.9079,   -58.51,      14.81,  -179.58,    27.8353,    66.20,          0,     0.00,    34.9348,   -41.54,    56.9081,   121.49,    14.8101,     0.41,    27.8354,  -113.80,          0,     0.00,    34.9348,   138.46,          0,     0.00,          0,     0.00,          0,     0.00,          0,     0.00,          0,     0.00
